T4C0C 000:035.893   SEGGER J-Link V7.58b Log File
T4C0C 000:036.023   DLL Compiled: Nov 16 2021 15:00:10
T4C0C 000:036.029   Logging started @ 2021-12-26 18:42
T4C0C 000:036.035 - 36.037ms
T4C0C 000:036.046 JLINK_SetWarnOutHandler(...)
T4C0C 000:036.053 - 0.009ms
T4C0C 000:036.059 JLINK_OpenEx(...)
T4C0C 000:037.658   Firmware: J-Link OB-SAM3U128 V3 compiled Feb  2 2021 16:48:08
T4C0C 000:037.804   Firmware: J-Link OB-SAM3U128 V3 compiled Feb  2 2021 16:48:08
T4C0C 000:039.233   Hardware: V3.00
T4C0C 000:039.252   S/N: 483056459
T4C0C 000:039.260   OEM: SEGGER
T4C0C 000:039.268   Feature(s): None
T4C0C 000:039.900   TELNET listener socket opened on port 19021
T4C0C 000:040.031   WEBSRV WEBSRV_Init(): Starting webserver thread(s)
T4C0C 000:040.154   WEBSRV Webserver running on local port 19080
T4C0C 000:058.710 - 22.669ms returns "O.K."
T4C0C 000:058.753 JLINK_GetEmuCaps()
T4C0C 000:058.759 - 0.009ms returns 0xB9FE5BBF
T4C0C 000:058.770 JLINK_TIF_GetAvailable(...)
T4C0C 000:058.888 - 0.126ms
T4C0C 000:058.906 JLINK_SetErrorOutHandler(...)
T4C0C 000:058.912 - 0.008ms
T4C0C 000:058.953 JLINK_ExecCommand("ProjectFile = "C:\Workspace\Keil\WecareBLEDevice\projects\target_apps\ble_examples\DA14531_USB_Preloaded _Firmware\project_environment\JLinkSettings.ini"", ...). 
T4C0C 000:078.544   Ref file found at: C:\Software\Keil_v5\ARM\Segger\JLinkDevices.ref
T4C0C 000:084.525   XML referenced by ref file: C:\Program Files\SEGGER\JLink_V758b\JLinkDevices.xml
T4C0C 000:085.300   C:\Program Files\SEGGER\JLink_V758b\JLinkDevices.xml evaluated successfully.
T4C0C 000:116.462 - 57.521ms returns 0x00
T4C0C 000:116.566 JLINK_ExecCommand("Device = ARMCM0P", ...). 
T4C0C 000:116.601   Device "CORTEX-M0" selected.
T4C0C 000:116.838 - 0.267ms returns 0x00
T4C0C 000:116.850 JLINK_ExecCommand("DisableConnectionTimeout", ...). 
T4C0C 000:116.858 - 0.004ms returns 0x01
T4C0C 000:116.865 JLINK_GetHardwareVersion()
T4C0C 000:116.871 - 0.008ms returns 30000
T4C0C 000:116.877 JLINK_GetDLLVersion()
T4C0C 000:116.883 - 0.008ms returns 75802
T4C0C 000:116.889 JLINK_GetOEMString(...)
T4C0C 000:116.903 JLINK_GetFirmwareString(...)
T4C0C 000:116.909 - 0.008ms
T4C0C 000:116.927 JLINK_GetDLLVersion()
T4C0C 000:116.932 - 0.008ms returns 75802
T4C0C 000:116.939 JLINK_GetCompileDateTime()
T4C0C 000:116.944 - 0.008ms
T4C0C 000:116.954 JLINK_GetFirmwareString(...)
T4C0C 000:116.960 - 0.008ms
T4C0C 000:116.969 JLINK_GetHardwareVersion()
T4C0C 000:116.975 - 0.008ms returns 30000
T4C0C 000:116.984 JLINK_GetSN()
T4C0C 000:116.990 - 0.008ms returns 483056459
T4C0C 000:116.999 JLINK_GetOEMString(...)
T4C0C 000:117.008 JLINK_TIF_Select(JLINKARM_TIF_SWD)
T4C0C 000:117.448 - 0.455ms returns 0x00
T4C0C 000:117.471 JLINK_HasError()
T4C0C 000:117.490 JLINK_SetSpeed(5000)
T4C0C 000:117.552 - 0.067ms
T4C0C 000:117.562 JLINK_GetId()
T4C0C 000:118.038   Found SW-DP with ID 0x0BC11477
T4C0C 000:119.871   DPIDR: 0x0BC11477
T4C0C 000:119.891   CoreSight SoC-400 or earlier
T4C0C 000:119.911   Scanning AP map to find all available APs
T4C0C 000:120.276   AP[1]: Stopped AP scan as end of AP map has been reached
T4C0C 000:120.296   AP[0]: AHB-AP (IDR: 0x04770031)
T4C0C 000:120.310   Iterating through AP map to find AHB-AP to use
T4C0C 000:120.806   AP[0]: Core found
T4C0C 000:120.819   AP[0]: AHB-AP ROM base: 0xE00FF000
T4C0C 000:121.051   CPUID register: 0x410CC601. Implementer code: 0x41 (ARM)
T4C0C 000:121.064   Found Cortex-M0 r0p1, Little endian.
T4C0C 000:221.421   -- Max. mem block: 0x00005168
T4C0C 000:221.510   CPU_ReadMem(4 bytes @ 0xE000EDF0)
T4C0C 000:221.840   CPU_WriteMem(4 bytes @ 0xE000EDF0)
T4C0C 000:222.101   CPU_ReadMem(4 bytes @ 0xE0002000)
T4C0C 000:222.367   FPUnit: 4 code (BP) slots and 0 literal slots
T4C0C 000:222.381   CPU_ReadMem(4 bytes @ 0xE000EDFC)
T4C0C 000:222.623   CPU_WriteMem(4 bytes @ 0xE000EDFC)
T4C0C 000:222.891   CPU_ReadMem(4 bytes @ 0xE0001000)
T4C0C 000:223.130   CPU_WriteMem(4 bytes @ 0xE0001000)
T4C0C 000:223.429   CoreSight components:
T4C0C 000:223.451   ROMTbl[0] @ E00FF000
T4C0C 000:223.506   CPU_ReadMem(64 bytes @ 0xE00FF000)
T4C0C 000:224.074   CPU_ReadMem(32 bytes @ 0xE000EFE0)
T4C0C 000:224.484   [0][0]: E000E000 CID B105E00D PID 000BB008 SCS
T4C0C 000:224.495   CPU_ReadMem(32 bytes @ 0xE0001FE0)
T4C0C 000:224.902   [0][1]: E0001000 CID B105E00D PID 000BB00A DWT
T4C0C 000:224.912   CPU_ReadMem(32 bytes @ 0xE0002FE0)
T4C0C 000:225.325   [0][2]: E0002000 CID B105E00D PID 000BB00B FPB
T4C0C 000:225.480 - 107.922ms returns 0x0BC11477
T4C0C 000:225.495 JLINK_GetDLLVersion()
T4C0C 000:225.501 - 0.008ms returns 75802
T4C0C 000:225.509 JLINK_CORE_GetFound()
T4C0C 000:225.515 - 0.008ms returns 0x60000FF
T4C0C 000:225.557 JLINK_GetDebugInfo(0x100 = JLINKARM_ROM_TABLE_ADDR_INDEX)
T4C0C 000:225.567   Value=0xE00FF000
T4C0C 000:225.575 - 0.021ms returns 0
T4C0C 000:225.588 JLINK_GetDebugInfo(0x100 = JLINKARM_ROM_TABLE_ADDR_INDEX)
T4C0C 000:225.595   Value=0xE00FF000
T4C0C 000:225.602 - 0.016ms returns 0
T4C0C 000:225.608 JLINK_GetDebugInfo(0x101 = JLINKARM_DEBUG_INFO_ETM_ADDR_INDEX)
T4C0C 000:225.614   Value=0x00000000
T4C0C 000:225.622 - 0.015ms returns 0
T4C0C 000:225.628 JLINK_ReadMemEx(0xE0041FF0, 0x10 Bytes, Flags = 0x02000004)
T4C0C 000:225.650   CPU_ReadMem(16 bytes @ 0xE0041FF0)
T4C0C 000:225.960   Data:  00 00 00 00 00 00 00 00 00 00 00 00 00 00 00 00
T4C0C 000:225.969 - 0.344ms returns 16 (0x10)
T4C0C 000:225.977 JLINK_GetDebugInfo(0x102 = JLINKARM_DEBUG_INFO_MTB_ADDR_INDEX)
T4C0C 000:225.982   Value=0x00000000
T4C0C 000:225.990 - 0.016ms returns 0
T4C0C 000:225.996 JLINK_GetDebugInfo(0x103 = JLINKARM_DEBUG_INFO_TPIU_ADDR_INDEX)
T4C0C 000:226.002   Value=0x00000000
T4C0C 000:226.009 - 0.015ms returns 0
T4C0C 000:226.015 JLINK_ReadMemEx(0xE0040FF0, 0x10 Bytes, Flags = 0x02000004)
T4C0C 000:226.024   CPU_ReadMem(16 bytes @ 0xE0040FF0)
T4C0C 000:226.323   Data:  00 00 00 00 00 00 00 00 00 00 00 00 00 00 00 00
T4C0C 000:226.332 - 0.319ms returns 16 (0x10)
T4C0C 000:226.339 JLINK_GetDebugInfo(0x104 = JLINKARM_DEBUG_INFO_ITM_ADDR_INDEX)
T4C0C 000:226.345   Value=0xE0000000
T4C0C 000:226.352 - 0.016ms returns 0
T4C0C 000:226.359 JLINK_GetDebugInfo(0x105 = JLINKARM_DEBUG_INFO_DWT_ADDR_INDEX)
T4C0C 000:226.364   Value=0xE0001000
T4C0C 000:226.372 - 0.015ms returns 0
T4C0C 000:226.378 JLINK_GetDebugInfo(0x106 = JLINKARM_DEBUG_INFO_FPB_ADDR_INDEX)
T4C0C 000:226.383   Value=0xE0002000
T4C0C 000:226.391 - 0.015ms returns 0
T4C0C 000:226.397 JLINK_GetDebugInfo(0x107 = JLINKARM_DEBUG_INFO_NVIC_ADDR_INDEX)
T4C0C 000:226.403   Value=0xE000E000
T4C0C 000:226.410 - 0.015ms returns 0
T4C0C 000:226.416 JLINK_GetDebugInfo(0x10C = JLINKARM_DEBUG_INFO_DBG_ADDR_INDEX)
T4C0C 000:226.422   Value=0xE000EDF0
T4C0C 000:226.429 - 0.015ms returns 0
T4C0C 000:226.436 JLINK_GetDebugInfo(0x01 = Unknown)
T4C0C 000:226.441   Value=0x00000000
T4C0C 000:226.449 - 0.016ms returns 0
T4C0C 000:226.455 JLINK_ReadMemU32(0xE000ED00, 0x1 Items)
T4C0C 000:226.463   CPU_ReadMem(4 bytes @ 0xE000ED00)
T4C0C 000:226.699   Data:  01 C6 0C 41
T4C0C 000:226.710   Debug reg: CPUID
T4C0C 000:226.717 - 0.264ms returns 1 (0x1)
T4C0C 000:226.725 JLINK_GetDebugInfo(0x10F = JLINKARM_DEBUG_INFO_HAS_CORTEX_M_SECURITY_EXT_INDEX)
T4C0C 000:226.731   Value=0x00000000
T4C0C 000:226.738 - 0.016ms returns 0
T4C0C 000:226.745 JLINK_HasError()
T4C0C 000:226.751 JLINK_SetResetType(JLINKARM_CM3_RESET_TYPE_NORMAL)
T4C0C 000:226.757 - 0.008ms returns JLINKARM_CM3_RESET_TYPE_NORMAL
T4C0C 000:226.763 JLINK_Reset()
T4C0C 000:226.791   CPU is running
T4C0C 000:226.800   CPU_WriteMem(4 bytes @ 0xE000EDF0)
T4C0C 000:227.064   CPU is running
T4C0C 000:227.074   CPU_WriteMem(4 bytes @ 0xE000EDFC)
T4C0C 000:227.339   Reset: Halt core after reset via DEMCR.VC_CORERESET.
T4C0C 000:227.684   Reset: Reset device via AIRCR.SYSRESETREQ.
T4C0C 000:227.701   CPU is running
T4C0C 000:227.710   CPU_WriteMem(4 bytes @ 0xE000ED0C)
T4C0C 000:280.797   CPU_ReadMem(4 bytes @ 0xE000EDF0)
T4C0C 000:281.052   CPU_ReadMem(4 bytes @ 0xE000EDF0)
T4C0C 000:281.295   CPU is running
T4C0C 000:281.305   CPU_WriteMem(4 bytes @ 0xE000EDF0)
T4C0C 000:281.575   CPU is running
T4C0C 000:281.585   CPU_WriteMem(4 bytes @ 0xE000EDFC)
T4C0C 000:287.522   CPU_ReadMem(4 bytes @ 0xE000EDF0)
T4C0C 000:290.313   CPU_WriteMem(4 bytes @ 0xE0002000)
T4C0C 000:290.597   CPU_ReadMem(4 bytes @ 0xE000EDFC)
T4C0C 000:290.901   CPU_ReadMem(4 bytes @ 0xE0001000)
T4C0C 000:291.198   CPU_WriteMem(4 bytes @ 0xE0001000)
T4C0C 000:291.498 - 64.741ms
T4C0C 000:291.563 JLINK_HasError()
T4C0C 000:291.578 JLINK_ReadReg(R15 (PC))
T4C0C 000:291.591 - 0.016ms returns 0x00001B80
T4C0C 000:291.599 JLINK_ReadReg(XPSR)
T4C0C 000:291.605 - 0.009ms returns 0xF1000000
T4C0C 000:291.612 JLINK_Halt()
T4C0C 000:291.618 - 0.008ms returns 0x00
T4C0C 000:291.625 JLINK_ReadMemU32(0xE000EDF0, 0x1 Items)
T4C0C 000:291.636   CPU_ReadMem(4 bytes @ 0xE000EDF0)
T4C0C 000:291.898   Data:  03 00 03 00
T4C0C 000:291.915   Debug reg: DHCSR
T4C0C 000:291.924 - 0.301ms returns 1 (0x1)
T4C0C 000:291.934 JLINK_WriteU32_64(0xE000EDF0, 0xA05F0003)
T4C0C 000:291.940   Debug reg: DHCSR
T4C0C 000:292.124   CPU_WriteMem(4 bytes @ 0xE000EDF0)
T4C0C 000:292.419 - 0.489ms returns 0 (0x00000000)
T4C0C 000:292.428 JLINK_WriteU32_64(0xE000EDFC, 0x01000000)
T4C0C 000:292.434   Debug reg: DEMCR
T4C0C 000:292.444   CPU_WriteMem(4 bytes @ 0xE000EDFC)
T4C0C 000:292.713 - 0.289ms returns 0 (0x00000000)
T4C0C 000:292.759 JLINK_GetHWStatus(...)
T4C0C 000:292.853 - 0.098ms returns 0
T4C0C 000:292.874 JLINK_GetNumBPUnits(Type = 0xFFFFFF00)
T4C0C 000:292.881 - 0.009ms returns 0x04
T4C0C 000:292.887 JLINK_GetNumBPUnits(Type = 0xF0)
T4C0C 000:292.893 - 0.008ms returns 0x2000
T4C0C 000:292.899 JLINK_GetNumWPUnits()
T4C0C 000:292.904 - 0.008ms returns 2
T4C0C 000:292.918 JLINK_GetSpeed()
T4C0C 000:292.924 - 0.008ms returns 2667
T4C0C 000:292.935 JLINK_ReadMemU32(0xE000E004, 0x1 Items)
T4C0C 000:292.944   CPU_ReadMem(4 bytes @ 0xE000E004)
T4C0C 000:293.212   Data:  00 00 00 00
T4C0C 000:293.221 - 0.289ms returns 1 (0x1)
T4C0C 000:293.237 JLINK_HasError()
T4C0C 000:293.245 JLINK_ReadReg(R15 (PC))
T4C0C 000:293.252 - 0.010ms returns 0x00001B80
T4C0C 000:293.259 JLINK_ReadReg(XPSR)
T4C0C 000:293.265 - 0.008ms returns 0xF1000000
T4C0C 001:852.932 JLINK_ReadMemEx(0x00001B80, 0x3C Bytes, Flags = 0x02000000)
T4C0C 001:852.963   CPU_ReadMem(60 bytes @ 0x00001B80)
T4C0C 001:853.563   Data:  04 48 80 47 04 48 00 47 FE E7 FE E7 FE E7 FE E7 ...
T4C0C 001:853.591 - 0.661ms returns 60 (0x3C)
T4C0C 001:853.602 JLINK_ReadMemEx(0x00001B80, 0x2 Bytes, Flags = 0x02000000)
T4C0C 001:853.617   CPU_ReadMem(2 bytes @ 0x00001B80)
T4C0C 001:853.856   Data:  04 48
T4C0C 001:853.865 - 0.266ms returns 2 (0x2)
T4C0C 001:853.874 JLINK_ReadMemEx(0x00001B82, 0x2 Bytes, Flags = 0x02000000)
T4C0C 001:853.882   CPU_ReadMem(2 bytes @ 0x00001B82)
T4C0C 001:854.117   Data:  80 47
T4C0C 001:854.126 - 0.254ms returns 2 (0x2)
T4C0C 001:854.147 JLINK_ReadMemEx(0x00001B82, 0x2 Bytes, Flags = 0x02000000)
T4C0C 001:854.155   CPU_ReadMem(2 bytes @ 0x00001B82)
T4C0C 001:854.399   Data:  80 47
T4C0C 001:854.408 - 0.264ms returns 2 (0x2)
T4C0C 001:854.416 JLINK_ReadMemEx(0x00001B84, 0x3C Bytes, Flags = 0x02000000)
T4C0C 001:854.423   CPU_ReadMem(60 bytes @ 0x00001B84)
T4C0C 001:854.975   Data:  04 48 00 47 FE E7 FE E7 FE E7 FE E7 FE E7 FE E7 ...
T4C0C 001:854.989 - 0.576ms returns 60 (0x3C)
T4C0C 001:854.998 JLINK_ReadMemEx(0x00001B84, 0x2 Bytes, Flags = 0x02000000)
T4C0C 001:855.008   CPU_ReadMem(2 bytes @ 0x00001B84)
T4C0C 001:855.259   Data:  04 48
T4C0C 001:855.271 - 0.276ms returns 2 (0x2)
T4C0C 001:855.290 JLINK_ReadMemEx(0x00001B84, 0x3C Bytes, Flags = 0x02000000)
T4C0C 001:855.299   CPU_ReadMem(60 bytes @ 0x00001B84)
T4C0C 001:855.852   Data:  04 48 00 47 FE E7 FE E7 FE E7 FE E7 FE E7 FE E7 ...
T4C0C 001:855.863 - 0.575ms returns 60 (0x3C)
T4C0C 001:855.871 JLINK_ReadMemEx(0x00001B84, 0x2 Bytes, Flags = 0x02000000)
T4C0C 001:855.878   CPU_ReadMem(2 bytes @ 0x00001B84)
T4C0C 001:856.129   Data:  04 48
T4C0C 001:856.144 - 0.275ms returns 2 (0x2)
T4C0C 001:856.153 JLINK_ReadMemEx(0x00001B86, 0x2 Bytes, Flags = 0x02000000)
T4C0C 001:856.167   CPU_ReadMem(2 bytes @ 0x00001B86)
T4C0C 001:856.408   Data:  00 47
T4C0C 001:856.421 - 0.270ms returns 2 (0x2)
T4C0C 001:856.435 JLINK_ReadMemEx(0x00001B86, 0x2 Bytes, Flags = 0x02000000)
T4C0C 001:856.445   CPU_ReadMem(2 bytes @ 0x00001B86)
T4C0C 001:856.680   Data:  00 47
T4C0C 001:856.690 - 0.257ms returns 2 (0x2)
T4C0C 001:856.697 JLINK_ReadMemEx(0x00001B88, 0x3C Bytes, Flags = 0x02000000)
T4C0C 001:856.705   CPU_ReadMem(60 bytes @ 0x00001B88)
T4C0C 001:857.246   Data:  FE E7 FE E7 FE E7 FE E7 FE E7 FE E7 69 1B 00 00 ...
T4C0C 001:857.255 - 0.561ms returns 60 (0x3C)
T4C0C 001:857.265 JLINK_ReadMemEx(0x00001B88, 0x2 Bytes, Flags = 0x02000000)
T4C0C 001:857.273   CPU_ReadMem(2 bytes @ 0x00001B88)
T4C0C 001:857.507   Data:  FE E7
T4C0C 001:857.517 - 0.254ms returns 2 (0x2)
T4C0C 001:857.528 JLINK_ReadMemEx(0x00001B88, 0x3C Bytes, Flags = 0x02000000)
T4C0C 001:857.535   CPU_ReadMem(60 bytes @ 0x00001B88)
T4C0C 001:858.074   Data:  FE E7 FE E7 FE E7 FE E7 FE E7 FE E7 69 1B 00 00 ...
T4C0C 001:858.084 - 0.559ms returns 60 (0x3C)
T4C0C 001:858.091 JLINK_ReadMemEx(0x00001B88, 0x2 Bytes, Flags = 0x02000000)
T4C0C 001:858.098   CPU_ReadMem(2 bytes @ 0x00001B88)
T4C0C 001:858.335   Data:  FE E7
T4C0C 001:858.346 - 0.257ms returns 2 (0x2)
T4C0C 001:858.353 JLINK_ReadMemEx(0x00001B8A, 0x2 Bytes, Flags = 0x02000000)
T4C0C 001:858.361   CPU_ReadMem(2 bytes @ 0x00001B8A)
T4C0C 001:858.603   Data:  FE E7
T4C0C 001:858.612 - 0.261ms returns 2 (0x2)
T4C0C 001:858.623 JLINK_ReadMemEx(0x00001B8A, 0x2 Bytes, Flags = 0x02000000)
T4C0C 001:858.632   CPU_ReadMem(2 bytes @ 0x00001B8A)
T4C0C 001:858.869   Data:  FE E7
T4C0C 001:858.880 - 0.259ms returns 2 (0x2)
T4C0C 001:858.887 JLINK_ReadMemEx(0x00001B8C, 0x3C Bytes, Flags = 0x02000000)
T4C0C 001:858.895   CPU_ReadMem(60 bytes @ 0x00001B8C)
T4C0C 001:859.434   Data:  FE E7 FE E7 FE E7 FE E7 69 1B 00 00 95 00 00 00 ...
T4C0C 001:859.443 - 0.558ms returns 60 (0x3C)
T4C0C 001:859.450 JLINK_ReadMemEx(0x00001B8C, 0x2 Bytes, Flags = 0x02000000)
T4C0C 001:859.458   CPU_ReadMem(2 bytes @ 0x00001B8C)
T4C0C 001:859.693   Data:  FE E7
T4C0C 001:859.703 - 0.255ms returns 2 (0x2)
T4C0C 001:859.714 JLINK_ReadMemEx(0x00001B8C, 0x3C Bytes, Flags = 0x02000000)
T4C0C 001:859.722   CPU_ReadMem(60 bytes @ 0x00001B8C)
T4C0C 001:860.281   Data:  FE E7 FE E7 FE E7 FE E7 69 1B 00 00 95 00 00 00 ...
T4C0C 001:860.293 - 0.582ms returns 60 (0x3C)
T4C0C 001:860.301 JLINK_ReadMemEx(0x00001B8C, 0x2 Bytes, Flags = 0x02000000)
T4C0C 001:860.310   CPU_ReadMem(2 bytes @ 0x00001B8C)
T4C0C 001:860.552   Data:  FE E7
T4C0C 001:860.564 - 0.265ms returns 2 (0x2)
T4C0C 001:860.572 JLINK_ReadMemEx(0x00001B8E, 0x2 Bytes, Flags = 0x02000000)
T4C0C 001:860.581   CPU_ReadMem(2 bytes @ 0x00001B8E)
T4C0C 001:860.822   Data:  FE E7
T4C0C 001:860.833 - 0.265ms returns 2 (0x2)
T4C0C 001:860.848 JLINK_ReadMemEx(0x00001B8E, 0x2 Bytes, Flags = 0x02000000)
T4C0C 001:860.857   CPU_ReadMem(2 bytes @ 0x00001B8E)
T4C0C 001:861.120   Data:  FE E7
T4C0C 001:861.142 - 0.297ms returns 2 (0x2)
T4C0C 001:861.154 JLINK_ReadMemEx(0x00001B90, 0x3C Bytes, Flags = 0x02000000)
T4C0C 001:861.170   CPU_ReadMem(60 bytes @ 0x00001B90)
T4C0C 001:861.739   Data:  FE E7 FE E7 69 1B 00 00 95 00 00 00 06 4C 01 25 ...
T4C0C 001:861.754 - 0.602ms returns 60 (0x3C)
T4C0C 001:861.762 JLINK_ReadMemEx(0x00001B90, 0x2 Bytes, Flags = 0x02000000)
T4C0C 001:861.772   CPU_ReadMem(2 bytes @ 0x00001B90)
T4C0C 001:862.032   Data:  FE E7
T4C0C 001:862.042 - 0.282ms returns 2 (0x2)
T4C0C 001:862.055 JLINK_ReadMemEx(0x00001B90, 0x3C Bytes, Flags = 0x02000000)
T4C0C 001:862.063   CPU_ReadMem(60 bytes @ 0x00001B90)
T4C0C 001:862.601   Data:  FE E7 FE E7 69 1B 00 00 95 00 00 00 06 4C 01 25 ...
T4C0C 001:862.610 - 0.558ms returns 60 (0x3C)
T4C0C 001:862.617 JLINK_ReadMemEx(0x00001B90, 0x2 Bytes, Flags = 0x02000000)
T4C0C 001:862.625   CPU_ReadMem(2 bytes @ 0x00001B90)
T4C0C 001:862.860   Data:  FE E7
T4C0C 001:862.869 - 0.254ms returns 2 (0x2)
T4C0C 001:862.877 JLINK_ReadMemEx(0x00001B92, 0x2 Bytes, Flags = 0x02000000)
T4C0C 001:862.923   CPU_ReadMem(2 bytes @ 0x00001B92)
T4C0C 001:863.159   Data:  FE E7
T4C0C 001:863.168 - 0.294ms returns 2 (0x2)
T4C0C 001:863.180 JLINK_ReadMemEx(0x00001B92, 0x2 Bytes, Flags = 0x02000000)
T4C0C 001:863.188   CPU_ReadMem(2 bytes @ 0x00001B92)
T4C0C 001:863.434   Data:  FE E7
T4C0C 001:863.447 - 0.269ms returns 2 (0x2)
T4C0C 001:863.455 JLINK_ReadMemEx(0x00001B94, 0x3C Bytes, Flags = 0x02000000)
T4C0C 001:863.465   CPU_ReadMem(60 bytes @ 0x00001B94)
T4C0C 001:864.008   Data:  69 1B 00 00 95 00 00 00 06 4C 01 25 06 4E 05 E0 ...
T4C0C 001:864.018 - 0.565ms returns 60 (0x3C)
T4C0C 001:864.025 JLINK_ReadMemEx(0x00001B94, 0x2 Bytes, Flags = 0x02000000)
T4C0C 001:864.033   CPU_ReadMem(2 bytes @ 0x00001B94)
T4C0C 001:864.282   Data:  69 1B
T4C0C 001:864.299 - 0.277ms returns 2 (0x2)
T4C0C 002:189.480 JLINK_HasError()
T4C0C 002:189.499 JLINK_SetResetType(JLINKARM_CM3_RESET_TYPE_NORMAL)
T4C0C 002:189.506 - 0.009ms returns JLINKARM_CM3_RESET_TYPE_NORMAL
T4C0C 002:189.513 JLINK_Reset()
T4C0C 002:189.529   CPU_WriteMem(4 bytes @ 0xE000EDF0)
T4C0C 002:189.833   CPU_WriteMem(4 bytes @ 0xE000EDFC)
T4C0C 002:190.130   Reset: Halt core after reset via DEMCR.VC_CORERESET.
T4C0C 002:190.372   Reset: Reset device via AIRCR.SYSRESETREQ.
T4C0C 002:190.384   CPU_WriteMem(4 bytes @ 0xE000ED0C)
T4C0C 002:243.015   CPU_ReadMem(4 bytes @ 0xE000EDF0)
T4C0C 002:243.286   CPU_ReadMem(4 bytes @ 0xE000EDF0)
T4C0C 002:243.562   CPU_WriteMem(4 bytes @ 0xE000EDF0)
T4C0C 002:243.840   CPU_WriteMem(4 bytes @ 0xE000EDFC)
T4C0C 002:249.681   CPU_ReadMem(4 bytes @ 0xE000EDF0)
T4C0C 002:252.463   CPU_WriteMem(4 bytes @ 0xE0002000)
T4C0C 002:252.756   CPU_ReadMem(4 bytes @ 0xE000EDFC)
T4C0C 002:252.997   CPU_ReadMem(4 bytes @ 0xE0001000)
T4C0C 002:253.231   CPU_WriteMem(4 bytes @ 0xE0001000)
T4C0C 002:253.494 - 63.985ms
T4C0C 002:253.541 JLINK_HasError()
T4C0C 002:253.549 JLINK_ReadReg(R15 (PC))
T4C0C 002:253.557 - 0.011ms returns 0x00001B80
T4C0C 002:253.564 JLINK_ReadReg(XPSR)
T4C0C 002:253.570 - 0.008ms returns 0xF1000000
T4C0C 002:253.616 JLINK_HasError()
T4C0C 002:253.623 JLINK_ReadReg(R0)
T4C0C 002:253.629 - 0.009ms returns 0xFFFFFFFF
T4C0C 002:253.636 JLINK_ReadReg(R1)
T4C0C 002:253.641 - 0.008ms returns 0xFFFFFFFF
T4C0C 002:253.648 JLINK_ReadReg(R2)
T4C0C 002:253.653 - 0.008ms returns 0xFFFFFFFF
T4C0C 002:253.660 JLINK_ReadReg(R3)
T4C0C 002:253.666 - 0.009ms returns 0xFFFFFFFF
T4C0C 002:253.677 JLINK_ReadReg(R4)
T4C0C 002:253.684 - 0.009ms returns 0xFFFFFFFF
T4C0C 002:253.691 JLINK_HasError()
T4C0C 002:299.797 JLINK_HasError()
T4C0C 002:299.824 JLINK_ReadReg(R0)
T4C0C 002:299.835 - 0.014ms returns 0xFFFFFFFF
T4C0C 002:299.842 JLINK_ReadReg(R1)
T4C0C 002:299.848 - 0.008ms returns 0xFFFFFFFF
T4C0C 002:299.855 JLINK_ReadReg(R2)
T4C0C 002:299.861 - 0.008ms returns 0xFFFFFFFF
T4C0C 002:299.867 JLINK_ReadReg(R3)
T4C0C 002:299.873 - 0.008ms returns 0xFFFFFFFF
T4C0C 002:299.879 JLINK_ReadReg(R4)
T4C0C 002:299.885 - 0.008ms returns 0xFFFFFFFF
T4C0C 002:299.891 JLINK_ReadReg(R5)
T4C0C 002:299.897 - 0.008ms returns 0xFFFFFFFF
T4C0C 002:299.903 JLINK_ReadReg(R6)
T4C0C 002:299.909 - 0.008ms returns 0xFFFFFFFF
T4C0C 002:299.915 JLINK_ReadReg(R7)
T4C0C 002:299.921 - 0.008ms returns 0xFFFFFFFF
T4C0C 002:299.928 JLINK_ReadReg(R8)
T4C0C 002:299.949 - 0.024ms returns 0xFFFFFFFF
T4C0C 002:299.956 JLINK_ReadReg(R9)
T4C0C 002:299.961 - 0.008ms returns 0xFFFFFFFF
T4C0C 002:299.969 JLINK_ReadReg(R10)
T4C0C 002:299.975 - 0.008ms returns 0xFFFFFFFF
T4C0C 002:299.981 JLINK_ReadReg(R11)
T4C0C 002:299.987 - 0.008ms returns 0xFFFFFFFF
T4C0C 002:299.993 JLINK_ReadReg(R12)
T4C0C 002:299.999 - 0.008ms returns 0xFFFFFFFF
T4C0C 002:300.005 JLINK_ReadReg(R13 (SP))
T4C0C 002:300.011 - 0.009ms returns 0x07FCBFE8
T4C0C 002:300.018 JLINK_ReadReg(R14)
T4C0C 002:300.024 - 0.008ms returns 0xFFFFFFFF
T4C0C 002:300.030 JLINK_ReadReg(R15 (PC))
T4C0C 002:300.036 - 0.008ms returns 0x00001B80
T4C0C 002:300.042 JLINK_ReadReg(XPSR)
T4C0C 002:300.048 - 0.012ms returns 0xF1000000
T4C0C 002:300.059 JLINK_ReadReg(MSP)
T4C0C 002:300.065 - 0.008ms returns 0x07FCBFE8
T4C0C 002:300.071 JLINK_ReadReg(PSP)
T4C0C 002:300.077 - 0.008ms returns 0xFFFFFFFC
T4C0C 002:300.084 JLINK_ReadReg(CFBP)
T4C0C 002:300.090 - 0.008ms returns 0x00000000
T4C0C 002:300.098 JLINK_ReadMemEx(0x50000012, 0x4 Bytes, Flags = 0x02000000)
T4C0C 002:300.112   CPU_ReadMem(4 bytes @ 0x50000012)
T4C0C 002:300.456   Data:  A0 01 D5 00
T4C0C 002:300.466 - 0.370ms returns 4 (0x4)
T4C0C 002:300.517 JLINK_WriteMemEx(0x50000012, 0x00000004 Bytes, Flags = 0x02000000)
T4C0C 002:300.523   Data:  A2 01 00 00
T4C0C 002:300.690   CPU_WriteMem(4 bytes @ 0x50000012)
T4C0C 002:301.049 - 0.536ms returns 0x4
T4C0C 002:301.072 JLINK_HasError()
T4C0C 002:301.079 JLINK_SetResetType(JLINKARM_CM3_RESET_TYPE_NORMAL)
T4C0C 002:301.085 - 0.008ms returns JLINKARM_CM3_RESET_TYPE_NORMAL
T4C0C 002:301.092 JLINK_Reset()
T4C0C 002:301.101   CPU_WriteMem(4 bytes @ 0xE000EDF0)
T4C0C 002:301.361   CPU_WriteMem(4 bytes @ 0xE000EDFC)
T4C0C 002:301.628   Reset: Halt core after reset via DEMCR.VC_CORERESET.
T4C0C 002:301.912   Reset: Reset device via AIRCR.SYSRESETREQ.
T4C0C 002:301.940   CPU_WriteMem(4 bytes @ 0xE000ED0C)
T4C0C 002:354.574   CPU_ReadMem(4 bytes @ 0xE000EDF0)
T4C0C 002:354.822   CPU_ReadMem(4 bytes @ 0xE000EDF0)
T4C0C 002:355.059   CPU_WriteMem(4 bytes @ 0xE000EDF0)
T4C0C 002:355.321   CPU_WriteMem(4 bytes @ 0xE000EDFC)
T4C0C 002:361.316   CPU_ReadMem(4 bytes @ 0xE000EDF0)
T4C0C 002:364.096   CPU_WriteMem(4 bytes @ 0xE0002000)
T4C0C 002:364.365   CPU_ReadMem(4 bytes @ 0xE000EDFC)
T4C0C 002:364.602   CPU_ReadMem(4 bytes @ 0xE0001000)
T4C0C 002:364.836   CPU_WriteMem(4 bytes @ 0xE0001000)
T4C0C 002:365.098 - 64.011ms
T4C0C 002:365.144 JLINK_HasError()
T4C0C 002:365.152 JLINK_ReadReg(R15 (PC))
T4C0C 002:365.161 - 0.011ms returns 0x575C6772
T4C0C 002:365.167 JLINK_ReadReg(XPSR)
T4C0C 002:365.173 - 0.009ms returns 0xF1000000
T4C0C 002:365.216 JLINK_HasError()
T4C0C 002:365.223 JLINK_ReadReg(R0)
T4C0C 002:365.229 - 0.009ms returns 0xFFFFFFFF
T4C0C 002:365.235 JLINK_ReadReg(R1)
T4C0C 002:365.241 - 0.008ms returns 0xFFFFFFFF
T4C0C 002:365.248 JLINK_ReadReg(R2)
T4C0C 002:365.253 - 0.008ms returns 0xFFFFFFFF
T4C0C 002:365.260 JLINK_ReadReg(R3)
T4C0C 002:365.265 - 0.008ms returns 0xFFFFFFFF
T4C0C 002:365.272 JLINK_ReadReg(R4)
T4C0C 002:365.278 - 0.008ms returns 0xFFFFFFFF
T4C0C 002:365.284 JLINK_HasError()
T4C0C 002:368.911 JLINK_ReadMemEx(0x575C6772, 0x2 Bytes, Flags = 0x02000000)
T4C0C 002:368.947   CPU_ReadMem(2 bytes @ 0x575C6772)
T4C0C 002:369.236   failed
T4C0C 002:369.252 - 0.344ms returns -1 (0xFFFFFFFF)
T4C0C 002:369.261 JLINK_ReadMemEx(0x575C6772, 0x2 Bytes, Flags = 0x02000000)
T4C0C 002:369.273   CPU_ReadMem(2 bytes @ 0x575C6772)
T4C0C 002:369.552   failed
T4C0C 002:369.563 - 0.304ms returns -1 (0xFFFFFFFF)
T4C0C 002:369.570 JLINK_ReadMemEx(0x575C6772, 0x2 Bytes, Flags = 0x02000000)
T4C0C 002:369.579   CPU_ReadMem(2 bytes @ 0x575C6772)
T4C0C 002:369.845   failed
T4C0C 002:369.855 - 0.287ms returns -1 (0xFFFFFFFF)
T4C0C 002:369.862 JLINK_ReadMemEx(0x575C6772, 0x2 Bytes, Flags = 0x02000000)
T4C0C 002:369.870   CPU_ReadMem(2 bytes @ 0x575C6772)
T4C0C 002:370.152   failed
T4C0C 002:370.162 - 0.303ms returns -1 (0xFFFFFFFF)
T4C0C 002:370.169 JLINK_ReadMemEx(0x575C6772, 0x2 Bytes, Flags = 0x02000000)
T4C0C 002:370.177   CPU_ReadMem(2 bytes @ 0x575C6772)
T4C0C 002:370.443   failed
T4C0C 002:370.453 - 0.286ms returns -1 (0xFFFFFFFF)
T4C0C 002:370.460 JLINK_ReadMemEx(0x575C6772, 0x1 Bytes, Flags = 0x02000000)
T4C0C 002:370.468   CPU_ReadMem(1 bytes @ 0x575C6772)
T4C0C 002:370.732   failed
T4C0C 002:370.741 - 0.284ms returns -1 (0xFFFFFFFF)
T4C0C 002:370.792 JLINK_ReadMemEx(0x575C6774, 0x3C Bytes, Flags = 0x02000000)
T4C0C 002:370.800   CPU_ReadMem(60 bytes @ 0x575C6774)
T4C0C 002:371.112   failed
T4C0C 002:371.122 - 0.332ms returns -1 (0xFFFFFFFF)
T4C0C 002:371.129 JLINK_ReadMemEx(0x575C6774, 0x3C Bytes, Flags = 0x02000000)
T4C0C 002:371.137   CPU_ReadMem(60 bytes @ 0x575C6774)
T4C0C 002:371.461   failed
T4C0C 002:371.474 - 0.348ms returns -1 (0xFFFFFFFF)
T4C0C 002:371.482 JLINK_ReadMemEx(0x575C6774, 0xC Bytes, Flags = 0x02000000)
T4C0C 002:371.492   CPU_ReadMem(12 bytes @ 0x575C6774)
T4C0C 002:371.795   failed
T4C0C 002:371.805 - 0.326ms returns -1 (0xFFFFFFFF)
T4C0C 002:371.812 JLINK_ReadMemEx(0x575C6774, 0x4 Bytes, Flags = 0x02000000)
T4C0C 002:371.820   CPU_ReadMem(4 bytes @ 0x575C6774)
T4C0C 002:372.098   failed
T4C0C 002:372.108 - 0.298ms returns -1 (0xFFFFFFFF)
T4C0C 002:372.115 JLINK_ReadMemEx(0x575C6774, 0x2 Bytes, Flags = 0x02000000)
T4C0C 002:372.123   CPU_ReadMem(2 bytes @ 0x575C6774)
T4C0C 002:372.380   failed
T4C0C 002:372.391 - 0.279ms returns -1 (0xFFFFFFFF)
T4C0C 002:372.399 JLINK_ReadMemEx(0x575C6774, 0x1 Bytes, Flags = 0x02000000)
T4C0C 002:372.408   CPU_ReadMem(1 bytes @ 0x575C6774)
T4C0C 002:372.687   failed
T4C0C 002:372.702 - 0.305ms returns -1 (0xFFFFFFFF)
T4C0C 002:372.711 JLINK_ReadMemEx(0x575C6774, 0x2 Bytes, Flags = 0x02000000)
T4C0C 002:372.721   CPU_ReadMem(2 bytes @ 0x575C6774)
T4C0C 002:372.990   failed
T4C0C 002:373.000 - 0.292ms returns -1 (0xFFFFFFFF)
T4C0C 002:373.007 JLINK_ReadMemEx(0x575C6774, 0x2 Bytes, Flags = 0x02000000)
T4C0C 002:373.015   CPU_ReadMem(2 bytes @ 0x575C6774)
T4C0C 002:373.295   failed
T4C0C 002:373.304 - 0.299ms returns -1 (0xFFFFFFFF)
T4C0C 002:373.319 JLINK_ReadMemEx(0x575C6774, 0x2 Bytes, Flags = 0x02000000)
T4C0C 002:373.327   CPU_ReadMem(2 bytes @ 0x575C6774)
T4C0C 002:373.599   failed
T4C0C 002:373.608 - 0.292ms returns -1 (0xFFFFFFFF)
T4C0C 002:373.616 JLINK_ReadMemEx(0x575C6774, 0x2 Bytes, Flags = 0x02000000)
T4C0C 002:373.623   CPU_ReadMem(2 bytes @ 0x575C6774)
T4C0C 002:373.895   failed
T4C0C 002:373.904 - 0.291ms returns -1 (0xFFFFFFFF)
T4C0C 002:373.911 JLINK_ReadMemEx(0x575C6774, 0x2 Bytes, Flags = 0x02000000)
T4C0C 002:373.919   CPU_ReadMem(2 bytes @ 0x575C6774)
T4C0C 002:374.182   failed
T4C0C 002:374.191 - 0.282ms returns -1 (0xFFFFFFFF)
T4C0C 002:374.198 JLINK_ReadMemEx(0x575C6774, 0x1 Bytes, Flags = 0x02000000)
T4C0C 002:374.206   CPU_ReadMem(1 bytes @ 0x575C6774)
T4C0C 002:374.462   failed
T4C0C 002:374.471 - 0.275ms returns -1 (0xFFFFFFFF)
T4C0C 002:374.669 JLINK_ReadMemEx(0x575C6774, 0x3C Bytes, Flags = 0x02000000)
T4C0C 002:374.679   CPU_ReadMem(60 bytes @ 0x575C6774)
T4C0C 002:375.002   failed
T4C0C 002:375.012 - 0.345ms returns -1 (0xFFFFFFFF)
T4C0C 002:375.019 JLINK_ReadMemEx(0x575C6774, 0x3C Bytes, Flags = 0x02000000)
T4C0C 002:375.027   CPU_ReadMem(60 bytes @ 0x575C6774)
T4C0C 002:375.342   failed
T4C0C 002:375.352 - 0.336ms returns -1 (0xFFFFFFFF)
T4C0C 002:375.359 JLINK_ReadMemEx(0x575C6774, 0xC Bytes, Flags = 0x02000000)
T4C0C 002:375.367   CPU_ReadMem(12 bytes @ 0x575C6774)
T4C0C 002:375.645   failed
T4C0C 002:375.654 - 0.297ms returns -1 (0xFFFFFFFF)
T4C0C 002:375.661 JLINK_ReadMemEx(0x575C6774, 0x4 Bytes, Flags = 0x02000000)
T4C0C 002:375.669   CPU_ReadMem(4 bytes @ 0x575C6774)
T4C0C 002:375.954   failed
T4C0C 002:375.963 - 0.305ms returns -1 (0xFFFFFFFF)
T4C0C 002:375.971 JLINK_ReadMemEx(0x575C6774, 0x2 Bytes, Flags = 0x02000000)
T4C0C 002:375.978   CPU_ReadMem(2 bytes @ 0x575C6774)
T4C0C 002:376.239   failed
T4C0C 002:376.248 - 0.280ms returns -1 (0xFFFFFFFF)
T4C0C 002:376.255 JLINK_ReadMemEx(0x575C6774, 0x1 Bytes, Flags = 0x02000000)
T4C0C 002:376.263   CPU_ReadMem(1 bytes @ 0x575C6774)
T4C0C 002:376.525   failed
T4C0C 002:376.534 - 0.282ms returns -1 (0xFFFFFFFF)
T4C0C 002:376.541 JLINK_ReadMemEx(0x575C6774, 0x2 Bytes, Flags = 0x02000000)
T4C0C 002:376.549   CPU_ReadMem(2 bytes @ 0x575C6774)
T4C0C 002:376.812   failed
T4C0C 002:376.822 - 0.283ms returns -1 (0xFFFFFFFF)
T4C0C 002:376.829 JLINK_ReadMemEx(0x575C6774, 0x2 Bytes, Flags = 0x02000000)
T4C0C 002:376.837   CPU_ReadMem(2 bytes @ 0x575C6774)
T4C0C 002:377.096   failed
T4C0C 002:377.106 - 0.279ms returns -1 (0xFFFFFFFF)
T4C0C 002:377.113 JLINK_ReadMemEx(0x575C6774, 0x2 Bytes, Flags = 0x02000000)
T4C0C 002:377.121   CPU_ReadMem(2 bytes @ 0x575C6774)
T4C0C 002:377.390   failed
T4C0C 002:377.416 - 0.306ms returns -1 (0xFFFFFFFF)
T4C0C 002:377.427 JLINK_ReadMemEx(0x575C6774, 0x2 Bytes, Flags = 0x02000000)
T4C0C 002:377.442   CPU_ReadMem(2 bytes @ 0x575C6774)
T4C0C 002:377.722   failed
T4C0C 002:377.732 - 0.307ms returns -1 (0xFFFFFFFF)
T4C0C 002:377.739 JLINK_ReadMemEx(0x575C6774, 0x2 Bytes, Flags = 0x02000000)
T4C0C 002:377.747   CPU_ReadMem(2 bytes @ 0x575C6774)
T4C0C 002:378.046   failed
T4C0C 002:378.061 - 0.324ms returns -1 (0xFFFFFFFF)
T4C0C 002:378.070 JLINK_ReadMemEx(0x575C6774, 0x1 Bytes, Flags = 0x02000000)
T4C0C 002:378.080   CPU_ReadMem(1 bytes @ 0x575C6774)
T4C0C 002:378.361   failed
T4C0C 002:378.370 - 0.303ms returns -1 (0xFFFFFFFF)
T4C0C 002:378.378 JLINK_ReadMemEx(0x575C6776, 0x2 Bytes, Flags = 0x02000000)
T4C0C 002:378.386   CPU_ReadMem(2 bytes @ 0x575C6776)
T4C0C 002:378.668   failed
T4C0C 002:378.677 - 0.301ms returns -1 (0xFFFFFFFF)
T4C0C 002:378.684 JLINK_ReadMemEx(0x575C6776, 0x2 Bytes, Flags = 0x02000000)
T4C0C 002:378.691   CPU_ReadMem(2 bytes @ 0x575C6776)
T4C0C 002:378.958   failed
T4C0C 002:378.967 - 0.285ms returns -1 (0xFFFFFFFF)
T4C0C 002:378.974 JLINK_ReadMemEx(0x575C6776, 0x2 Bytes, Flags = 0x02000000)
T4C0C 002:378.981   CPU_ReadMem(2 bytes @ 0x575C6776)
T4C0C 002:379.245   failed
T4C0C 002:379.253 - 0.282ms returns -1 (0xFFFFFFFF)
T4C0C 002:379.260 JLINK_ReadMemEx(0x575C6776, 0x2 Bytes, Flags = 0x02000000)
T4C0C 002:379.268   CPU_ReadMem(2 bytes @ 0x575C6776)
T4C0C 002:379.541   failed
T4C0C 002:379.550 - 0.292ms returns -1 (0xFFFFFFFF)
T4C0C 002:379.557 JLINK_ReadMemEx(0x575C6776, 0x2 Bytes, Flags = 0x02000000)
T4C0C 002:379.564   CPU_ReadMem(2 bytes @ 0x575C6776)
T4C0C 002:379.833   failed
T4C0C 002:379.842 - 0.287ms returns -1 (0xFFFFFFFF)
T4C0C 002:379.849 JLINK_ReadMemEx(0x575C6776, 0x1 Bytes, Flags = 0x02000000)
T4C0C 002:379.856   CPU_ReadMem(1 bytes @ 0x575C6776)
T4C0C 002:380.121   failed
T4C0C 002:380.130 - 0.284ms returns -1 (0xFFFFFFFF)
T4C0C 002:380.149 JLINK_ReadMemEx(0x575C6776, 0x2 Bytes, Flags = 0x02000000)
T4C0C 002:380.157   CPU_ReadMem(2 bytes @ 0x575C6776)
T4C0C 002:380.421   failed
T4C0C 002:380.430 - 0.284ms returns -1 (0xFFFFFFFF)
T4C0C 002:380.437 JLINK_ReadMemEx(0x575C6776, 0x2 Bytes, Flags = 0x02000000)
T4C0C 002:380.444   CPU_ReadMem(2 bytes @ 0x575C6776)
T4C0C 002:380.711   failed
T4C0C 002:380.720 - 0.285ms returns -1 (0xFFFFFFFF)
T4C0C 002:380.727 JLINK_ReadMemEx(0x575C6776, 0x2 Bytes, Flags = 0x02000000)
T4C0C 002:380.734   CPU_ReadMem(2 bytes @ 0x575C6776)
T4C0C 002:381.018   failed
T4C0C 002:381.027 - 0.303ms returns -1 (0xFFFFFFFF)
T4C0C 002:381.034 JLINK_ReadMemEx(0x575C6776, 0x2 Bytes, Flags = 0x02000000)
T4C0C 002:381.041   CPU_ReadMem(2 bytes @ 0x575C6776)
T4C0C 002:381.305   failed
T4C0C 002:381.314 - 0.282ms returns -1 (0xFFFFFFFF)
T4C0C 002:381.321 JLINK_ReadMemEx(0x575C6776, 0x2 Bytes, Flags = 0x02000000)
T4C0C 002:381.328   CPU_ReadMem(2 bytes @ 0x575C6776)
T4C0C 002:381.594   failed
T4C0C 002:381.603 - 0.285ms returns -1 (0xFFFFFFFF)
T4C0C 002:381.610 JLINK_ReadMemEx(0x575C6776, 0x1 Bytes, Flags = 0x02000000)
T4C0C 002:381.618   CPU_ReadMem(1 bytes @ 0x575C6776)
T4C0C 002:381.928   failed
T4C0C 002:381.943 - 0.336ms returns -1 (0xFFFFFFFF)
T4C0C 002:381.952 JLINK_ReadMemEx(0x575C6778, 0x3C Bytes, Flags = 0x02000000)
T4C0C 002:381.963   CPU_ReadMem(60 bytes @ 0x575C6778)
T4C0C 002:382.306   failed
T4C0C 002:382.322 - 0.373ms returns -1 (0xFFFFFFFF)
T4C0C 002:382.332 JLINK_ReadMemEx(0x575C6778, 0x3C Bytes, Flags = 0x02000000)
T4C0C 002:382.342   CPU_ReadMem(60 bytes @ 0x575C6778)
T4C0C 002:382.694   failed
T4C0C 002:382.711 - 0.382ms returns -1 (0xFFFFFFFF)
T4C0C 002:382.720 JLINK_ReadMemEx(0x575C6778, 0x8 Bytes, Flags = 0x02000000)
T4C0C 002:382.731   CPU_ReadMem(8 bytes @ 0x575C6778)
T4C0C 002:383.053   failed
T4C0C 002:383.074 - 0.356ms returns -1 (0xFFFFFFFF)
T4C0C 002:383.083 JLINK_ReadMemEx(0x575C6778, 0x4 Bytes, Flags = 0x02000000)
T4C0C 002:383.096   CPU_ReadMem(4 bytes @ 0x575C6778)
T4C0C 002:383.399   failed
T4C0C 002:383.461 - 0.380ms returns -1 (0xFFFFFFFF)
T4C0C 002:383.469 JLINK_ReadMemEx(0x575C6778, 0x2 Bytes, Flags = 0x02000000)
T4C0C 002:383.478   CPU_ReadMem(2 bytes @ 0x575C6778)
T4C0C 002:383.777   failed
T4C0C 002:383.791 - 0.325ms returns -1 (0xFFFFFFFF)
T4C0C 002:383.800 JLINK_ReadMemEx(0x575C6778, 0x1 Bytes, Flags = 0x02000000)
T4C0C 002:383.810   CPU_ReadMem(1 bytes @ 0x575C6778)
T4C0C 002:384.087   failed
T4C0C 002:384.097 - 0.299ms returns -1 (0xFFFFFFFF)
T4C0C 002:384.104 JLINK_ReadMemEx(0x575C6778, 0x2 Bytes, Flags = 0x02000000)
T4C0C 002:384.112   CPU_ReadMem(2 bytes @ 0x575C6778)
T4C0C 002:384.398   failed
T4C0C 002:384.407 - 0.306ms returns -1 (0xFFFFFFFF)
T4C0C 002:384.415 JLINK_ReadMemEx(0x575C6778, 0x2 Bytes, Flags = 0x02000000)
T4C0C 002:384.422   CPU_ReadMem(2 bytes @ 0x575C6778)
T4C0C 002:384.694   failed
T4C0C 002:384.709 - 0.297ms returns -1 (0xFFFFFFFF)
T4C0C 002:384.717 JLINK_ReadMemEx(0x575C6778, 0x2 Bytes, Flags = 0x02000000)
T4C0C 002:384.727   CPU_ReadMem(2 bytes @ 0x575C6778)
T4C0C 002:384.996   failed
T4C0C 002:385.010 - 0.296ms returns -1 (0xFFFFFFFF)
T4C0C 002:385.019 JLINK_ReadMemEx(0x575C6778, 0x2 Bytes, Flags = 0x02000000)
T4C0C 002:385.029   CPU_ReadMem(2 bytes @ 0x575C6778)
T4C0C 002:385.311   failed
T4C0C 002:385.329 - 0.313ms returns -1 (0xFFFFFFFF)
T4C0C 002:385.338 JLINK_ReadMemEx(0x575C6778, 0x2 Bytes, Flags = 0x02000000)
T4C0C 002:385.349   CPU_ReadMem(2 bytes @ 0x575C6778)
T4C0C 002:385.626   failed
T4C0C 002:385.639 - 0.303ms returns -1 (0xFFFFFFFF)
T4C0C 002:385.647 JLINK_ReadMemEx(0x575C6778, 0x1 Bytes, Flags = 0x02000000)
T4C0C 002:385.656   CPU_ReadMem(1 bytes @ 0x575C6778)
T4C0C 002:385.924   failed
T4C0C 002:385.933 - 0.289ms returns -1 (0xFFFFFFFF)
T4C0C 002:385.946 JLINK_ReadMemEx(0x575C6778, 0x3C Bytes, Flags = 0x02000000)
T4C0C 002:385.955   CPU_ReadMem(60 bytes @ 0x575C6778)
T4C0C 002:386.273   failed
T4C0C 002:386.283 - 0.339ms returns -1 (0xFFFFFFFF)
T4C0C 002:386.291 JLINK_ReadMemEx(0x575C6778, 0x3C Bytes, Flags = 0x02000000)
T4C0C 002:386.300   CPU_ReadMem(60 bytes @ 0x575C6778)
T4C0C 002:386.627   failed
T4C0C 002:386.638 - 0.350ms returns -1 (0xFFFFFFFF)
T4C0C 002:386.646 JLINK_ReadMemEx(0x575C6778, 0x8 Bytes, Flags = 0x02000000)
T4C0C 002:386.654   CPU_ReadMem(8 bytes @ 0x575C6778)
T4C0C 002:386.953   failed
T4C0C 002:386.964 - 0.321ms returns -1 (0xFFFFFFFF)
T4C0C 002:386.972 JLINK_ReadMemEx(0x575C6778, 0x4 Bytes, Flags = 0x02000000)
T4C0C 002:386.980   CPU_ReadMem(4 bytes @ 0x575C6778)
T4C0C 002:387.299   failed
T4C0C 002:387.318 - 0.348ms returns -1 (0xFFFFFFFF)
T4C0C 002:387.327 JLINK_ReadMemEx(0x575C6778, 0x2 Bytes, Flags = 0x02000000)
T4C0C 002:387.340   CPU_ReadMem(2 bytes @ 0x575C6778)
T4C0C 002:387.622   failed
T4C0C 002:387.633 - 0.308ms returns -1 (0xFFFFFFFF)
T4C0C 002:387.640 JLINK_ReadMemEx(0x575C6778, 0x1 Bytes, Flags = 0x02000000)
T4C0C 002:387.649   CPU_ReadMem(1 bytes @ 0x575C6778)
T4C0C 002:387.921   failed
T4C0C 002:387.930 - 0.292ms returns -1 (0xFFFFFFFF)
T4C0C 002:387.937 JLINK_ReadMemEx(0x575C6778, 0x2 Bytes, Flags = 0x02000000)
T4C0C 002:387.945   CPU_ReadMem(2 bytes @ 0x575C6778)
T4C0C 002:388.207   failed
T4C0C 002:388.216 - 0.281ms returns -1 (0xFFFFFFFF)
T4C0C 002:388.223 JLINK_ReadMemEx(0x575C6778, 0x2 Bytes, Flags = 0x02000000)
T4C0C 002:388.231   CPU_ReadMem(2 bytes @ 0x575C6778)
T4C0C 002:388.493   failed
T4C0C 002:388.502 - 0.282ms returns -1 (0xFFFFFFFF)
T4C0C 002:388.510 JLINK_ReadMemEx(0x575C6778, 0x2 Bytes, Flags = 0x02000000)
T4C0C 002:388.517   CPU_ReadMem(2 bytes @ 0x575C6778)
T4C0C 002:388.793   failed
T4C0C 002:388.802 - 0.295ms returns -1 (0xFFFFFFFF)
T4C0C 002:388.809 JLINK_ReadMemEx(0x575C6778, 0x2 Bytes, Flags = 0x02000000)
T4C0C 002:388.817   CPU_ReadMem(2 bytes @ 0x575C6778)
T4C0C 002:389.077   failed
T4C0C 002:389.088 - 0.281ms returns -1 (0xFFFFFFFF)
T4C0C 002:389.095 JLINK_ReadMemEx(0x575C6778, 0x2 Bytes, Flags = 0x02000000)
T4C0C 002:389.103   CPU_ReadMem(2 bytes @ 0x575C6778)
T4C0C 002:389.367   failed
T4C0C 002:389.377 - 0.284ms returns -1 (0xFFFFFFFF)
T4C0C 002:389.446 JLINK_ReadMemEx(0x575C6778, 0x1 Bytes, Flags = 0x02000000)
T4C0C 002:389.458   CPU_ReadMem(1 bytes @ 0x575C6778)
T4C0C 002:389.738   failed
T4C0C 002:389.748 - 0.304ms returns -1 (0xFFFFFFFF)
T4C0C 002:389.760 JLINK_ReadMemEx(0x575C677A, 0x2 Bytes, Flags = 0x02000000)
T4C0C 002:389.768   CPU_ReadMem(2 bytes @ 0x575C677A)
T4C0C 002:390.044   failed
T4C0C 002:390.054 - 0.297ms returns -1 (0xFFFFFFFF)
T4C0C 002:390.063 JLINK_ReadMemEx(0x575C677A, 0x2 Bytes, Flags = 0x02000000)
T4C0C 002:390.071   CPU_ReadMem(2 bytes @ 0x575C677A)
T4C0C 002:390.333   failed
T4C0C 002:390.342 - 0.281ms returns -1 (0xFFFFFFFF)
T4C0C 002:390.351 JLINK_ReadMemEx(0x575C677A, 0x2 Bytes, Flags = 0x02000000)
T4C0C 002:390.359   CPU_ReadMem(2 bytes @ 0x575C677A)
T4C0C 002:390.620   failed
T4C0C 002:390.629 - 0.280ms returns -1 (0xFFFFFFFF)
T4C0C 002:390.638 JLINK_ReadMemEx(0x575C677A, 0x2 Bytes, Flags = 0x02000000)
T4C0C 002:390.646   CPU_ReadMem(2 bytes @ 0x575C677A)
T4C0C 002:390.923   failed
T4C0C 002:390.932 - 0.296ms returns -1 (0xFFFFFFFF)
T4C0C 002:390.941 JLINK_ReadMemEx(0x575C677A, 0x2 Bytes, Flags = 0x02000000)
T4C0C 002:390.949   CPU_ReadMem(2 bytes @ 0x575C677A)
T4C0C 002:391.211   failed
T4C0C 002:391.220 - 0.282ms returns -1 (0xFFFFFFFF)
T4C0C 002:391.230 JLINK_ReadMemEx(0x575C677A, 0x1 Bytes, Flags = 0x02000000)
T4C0C 002:391.237   CPU_ReadMem(1 bytes @ 0x575C677A)
T4C0C 002:391.501   failed
T4C0C 002:391.511 - 0.283ms returns -1 (0xFFFFFFFF)
T4C0C 002:391.553 JLINK_ReadMemEx(0x575C677A, 0x2 Bytes, Flags = 0x02000000)
T4C0C 002:391.562   CPU_ReadMem(2 bytes @ 0x575C677A)
T4C0C 002:391.819   failed
T4C0C 002:391.831 - 0.280ms returns -1 (0xFFFFFFFF)
T4C0C 002:391.838 JLINK_ReadMemEx(0x575C677A, 0x2 Bytes, Flags = 0x02000000)
T4C0C 002:391.846   CPU_ReadMem(2 bytes @ 0x575C677A)
T4C0C 002:392.113   failed
T4C0C 002:392.123 - 0.287ms returns -1 (0xFFFFFFFF)
T4C0C 002:392.130 JLINK_ReadMemEx(0x575C677A, 0x2 Bytes, Flags = 0x02000000)
T4C0C 002:392.137   CPU_ReadMem(2 bytes @ 0x575C677A)
T4C0C 002:392.400   failed
T4C0C 002:392.409 - 0.282ms returns -1 (0xFFFFFFFF)
T4C0C 002:392.416 JLINK_ReadMemEx(0x575C677A, 0x2 Bytes, Flags = 0x02000000)
T4C0C 002:392.423   CPU_ReadMem(2 bytes @ 0x575C677A)
T4C0C 002:392.677   failed
T4C0C 002:392.686 - 0.272ms returns -1 (0xFFFFFFFF)
T4C0C 002:392.693 JLINK_ReadMemEx(0x575C677A, 0x2 Bytes, Flags = 0x02000000)
T4C0C 002:392.700   CPU_ReadMem(2 bytes @ 0x575C677A)
T4C0C 002:392.964   failed
T4C0C 002:392.973 - 0.283ms returns -1 (0xFFFFFFFF)
T4C0C 002:392.980 JLINK_ReadMemEx(0x575C677A, 0x1 Bytes, Flags = 0x02000000)
T4C0C 002:392.988   CPU_ReadMem(1 bytes @ 0x575C677A)
T4C0C 002:393.241   failed
T4C0C 002:393.250 - 0.272ms returns -1 (0xFFFFFFFF)
T4C0C 002:393.258 JLINK_ReadMemEx(0x575C677C, 0x3C Bytes, Flags = 0x02000000)
T4C0C 002:393.265   CPU_ReadMem(60 bytes @ 0x575C677C)
T4C0C 002:393.584   failed
T4C0C 002:393.594 - 0.338ms returns -1 (0xFFFFFFFF)
T4C0C 002:393.601 JLINK_ReadMemEx(0x575C677C, 0x3C Bytes, Flags = 0x02000000)
T4C0C 002:393.608   CPU_ReadMem(60 bytes @ 0x575C677C)
T4C0C 002:393.926   failed
T4C0C 002:393.935 - 0.337ms returns -1 (0xFFFFFFFF)
T4C0C 002:393.942 JLINK_ReadMemEx(0x575C677C, 0x4 Bytes, Flags = 0x02000000)
T4C0C 002:393.950   CPU_ReadMem(4 bytes @ 0x575C677C)
T4C0C 002:394.249   failed
T4C0C 002:394.266 - 0.326ms returns -1 (0xFFFFFFFF)
T4C0C 002:394.275 JLINK_ReadMemEx(0x575C677C, 0x4 Bytes, Flags = 0x02000000)
T4C0C 002:394.285   CPU_ReadMem(4 bytes @ 0x575C677C)
T4C0C 002:394.584   failed
T4C0C 002:394.599 - 0.327ms returns -1 (0xFFFFFFFF)
T4C0C 002:394.608 JLINK_ReadMemEx(0x575C677C, 0x2 Bytes, Flags = 0x02000000)
T4C0C 002:394.619   CPU_ReadMem(2 bytes @ 0x575C677C)
T4C0C 002:394.902   failed
T4C0C 002:394.916 - 0.311ms returns -1 (0xFFFFFFFF)
T4C0C 002:394.924 JLINK_ReadMemEx(0x575C677C, 0x1 Bytes, Flags = 0x02000000)
T4C0C 002:394.934   CPU_ReadMem(1 bytes @ 0x575C677C)
T4C0C 002:395.217   failed
T4C0C 002:395.226 - 0.305ms returns -1 (0xFFFFFFFF)
T4C0C 002:395.236 JLINK_ReadMemEx(0x575C677C, 0x2 Bytes, Flags = 0x02000000)
T4C0C 002:395.246   CPU_ReadMem(2 bytes @ 0x575C677C)
T4C0C 002:395.523   failed
T4C0C 002:395.539 - 0.306ms returns -1 (0xFFFFFFFF)
T4C0C 002:395.549 JLINK_ReadMemEx(0x575C677C, 0x2 Bytes, Flags = 0x02000000)
T4C0C 002:395.560   CPU_ReadMem(2 bytes @ 0x575C677C)
T4C0C 002:395.837   failed
T4C0C 002:395.852 - 0.306ms returns -1 (0xFFFFFFFF)
T4C0C 002:395.861 JLINK_ReadMemEx(0x575C677C, 0x2 Bytes, Flags = 0x02000000)
T4C0C 002:395.871   CPU_ReadMem(2 bytes @ 0x575C677C)
T4C0C 002:396.155   failed
T4C0C 002:396.169 - 0.311ms returns -1 (0xFFFFFFFF)
T4C0C 002:396.177 JLINK_ReadMemEx(0x575C677C, 0x2 Bytes, Flags = 0x02000000)
T4C0C 002:396.188   CPU_ReadMem(2 bytes @ 0x575C677C)
T4C0C 002:396.470   failed
T4C0C 002:396.486 - 0.311ms returns -1 (0xFFFFFFFF)
T4C0C 002:396.495 JLINK_ReadMemEx(0x575C677C, 0x2 Bytes, Flags = 0x02000000)
T4C0C 002:396.505   CPU_ReadMem(2 bytes @ 0x575C677C)
T4C0C 002:396.793   failed
T4C0C 002:396.803 - 0.311ms returns -1 (0xFFFFFFFF)
T4C0C 002:396.810 JLINK_ReadMemEx(0x575C677C, 0x1 Bytes, Flags = 0x02000000)
T4C0C 002:396.818   CPU_ReadMem(1 bytes @ 0x575C677C)
T4C0C 002:397.105   failed
T4C0C 002:397.119 - 0.311ms returns -1 (0xFFFFFFFF)
T4C0C 002:397.135 JLINK_ReadMemEx(0x575C677C, 0x3C Bytes, Flags = 0x02000000)
T4C0C 002:397.145   CPU_ReadMem(60 bytes @ 0x575C677C)
T4C0C 002:397.466   failed
T4C0C 002:397.480 - 0.347ms returns -1 (0xFFFFFFFF)
T4C0C 002:397.488 JLINK_ReadMemEx(0x575C677C, 0x3C Bytes, Flags = 0x02000000)
T4C0C 002:397.497   CPU_ReadMem(60 bytes @ 0x575C677C)
T4C0C 002:397.838   failed
T4C0C 002:397.853 - 0.367ms returns -1 (0xFFFFFFFF)
T4C0C 002:397.862 JLINK_ReadMemEx(0x575C677C, 0x4 Bytes, Flags = 0x02000000)
T4C0C 002:397.872   CPU_ReadMem(4 bytes @ 0x575C677C)
T4C0C 002:398.169   failed
T4C0C 002:398.178 - 0.319ms returns -1 (0xFFFFFFFF)
T4C0C 002:398.186 JLINK_ReadMemEx(0x575C677C, 0x4 Bytes, Flags = 0x02000000)
T4C0C 002:398.194   CPU_ReadMem(4 bytes @ 0x575C677C)
T4C0C 002:398.475   failed
T4C0C 002:398.485 - 0.302ms returns -1 (0xFFFFFFFF)
T4C0C 002:398.492 JLINK_ReadMemEx(0x575C677C, 0x2 Bytes, Flags = 0x02000000)
T4C0C 002:398.500   CPU_ReadMem(2 bytes @ 0x575C677C)
T4C0C 002:398.769   failed
T4C0C 002:398.779 - 0.289ms returns -1 (0xFFFFFFFF)
T4C0C 002:398.786 JLINK_ReadMemEx(0x575C677C, 0x1 Bytes, Flags = 0x02000000)
T4C0C 002:398.793   CPU_ReadMem(1 bytes @ 0x575C677C)
T4C0C 002:399.065   failed
T4C0C 002:399.079 - 0.296ms returns -1 (0xFFFFFFFF)
T4C0C 002:399.088 JLINK_ReadMemEx(0x575C677C, 0x2 Bytes, Flags = 0x02000000)
T4C0C 002:399.098   CPU_ReadMem(2 bytes @ 0x575C677C)
T4C0C 002:399.366   failed
T4C0C 002:399.375 - 0.290ms returns -1 (0xFFFFFFFF)
T4C0C 002:399.382 JLINK_ReadMemEx(0x575C677C, 0x2 Bytes, Flags = 0x02000000)
T4C0C 002:399.390   CPU_ReadMem(2 bytes @ 0x575C677C)
T4C0C 002:399.666   failed
T4C0C 002:399.676 - 0.296ms returns -1 (0xFFFFFFFF)
T4C0C 002:399.683 JLINK_ReadMemEx(0x575C677C, 0x2 Bytes, Flags = 0x02000000)
T4C0C 002:399.691   CPU_ReadMem(2 bytes @ 0x575C677C)
T4C0C 002:399.960   failed
T4C0C 002:399.971 - 0.290ms returns -1 (0xFFFFFFFF)
T4C0C 002:399.978 JLINK_ReadMemEx(0x575C677C, 0x2 Bytes, Flags = 0x02000000)
T4C0C 002:399.987   CPU_ReadMem(2 bytes @ 0x575C677C)
T4C0C 002:400.270   failed
T4C0C 002:400.279 - 0.303ms returns -1 (0xFFFFFFFF)
T4C0C 002:400.286 JLINK_ReadMemEx(0x575C677C, 0x2 Bytes, Flags = 0x02000000)
T4C0C 002:400.294   CPU_ReadMem(2 bytes @ 0x575C677C)
T4C0C 002:400.556   failed
T4C0C 002:400.566 - 0.282ms returns -1 (0xFFFFFFFF)
T4C0C 002:400.573 JLINK_ReadMemEx(0x575C677C, 0x1 Bytes, Flags = 0x02000000)
T4C0C 002:400.581   CPU_ReadMem(1 bytes @ 0x575C677C)
T4C0C 002:400.843   failed
T4C0C 002:400.852 - 0.282ms returns -1 (0xFFFFFFFF)
T4C0C 002:400.860 JLINK_ReadMemEx(0x575C677E, 0x2 Bytes, Flags = 0x02000000)
T4C0C 002:400.868   CPU_ReadMem(2 bytes @ 0x575C677E)
T4C0C 002:401.144   failed
T4C0C 002:401.154 - 0.296ms returns -1 (0xFFFFFFFF)
T4C0C 002:401.161 JLINK_ReadMemEx(0x575C677E, 0x2 Bytes, Flags = 0x02000000)
T4C0C 002:401.172   CPU_ReadMem(2 bytes @ 0x575C677E)
T4C0C 002:401.436   failed
T4C0C 002:401.445 - 0.286ms returns -1 (0xFFFFFFFF)
T4C0C 002:401.452 JLINK_ReadMemEx(0x575C677E, 0x2 Bytes, Flags = 0x02000000)
T4C0C 002:401.460   CPU_ReadMem(2 bytes @ 0x575C677E)
T4C0C 002:401.721   failed
T4C0C 002:401.730 - 0.281ms returns -1 (0xFFFFFFFF)
T4C0C 002:401.737 JLINK_ReadMemEx(0x575C677E, 0x2 Bytes, Flags = 0x02000000)
T4C0C 002:401.745   CPU_ReadMem(2 bytes @ 0x575C677E)
T4C0C 002:402.021   failed
T4C0C 002:402.031 - 0.295ms returns -1 (0xFFFFFFFF)
T4C0C 002:402.038 JLINK_ReadMemEx(0x575C677E, 0x2 Bytes, Flags = 0x02000000)
T4C0C 002:402.046   CPU_ReadMem(2 bytes @ 0x575C677E)
T4C0C 002:402.308   failed
T4C0C 002:402.319 - 0.283ms returns -1 (0xFFFFFFFF)
T4C0C 002:402.326 JLINK_ReadMemEx(0x575C677E, 0x1 Bytes, Flags = 0x02000000)
T4C0C 002:402.334   CPU_ReadMem(1 bytes @ 0x575C677E)
T4C0C 002:402.596   failed
T4C0C 002:402.605 - 0.282ms returns -1 (0xFFFFFFFF)
T4C0C 002:402.623 JLINK_ReadMemEx(0x575C677E, 0x2 Bytes, Flags = 0x02000000)
T4C0C 002:402.631   CPU_ReadMem(2 bytes @ 0x575C677E)
T4C0C 002:402.894   failed
T4C0C 002:402.904 - 0.283ms returns -1 (0xFFFFFFFF)
T4C0C 002:402.911 JLINK_ReadMemEx(0x575C677E, 0x2 Bytes, Flags = 0x02000000)
T4C0C 002:402.919   CPU_ReadMem(2 bytes @ 0x575C677E)
T4C0C 002:403.180   failed
T4C0C 002:403.190 - 0.281ms returns -1 (0xFFFFFFFF)
T4C0C 002:403.197 JLINK_ReadMemEx(0x575C677E, 0x2 Bytes, Flags = 0x02000000)
T4C0C 002:403.204   CPU_ReadMem(2 bytes @ 0x575C677E)
T4C0C 002:403.468   failed
T4C0C 002:403.479 - 0.285ms returns -1 (0xFFFFFFFF)
T4C0C 002:403.486 JLINK_ReadMemEx(0x575C677E, 0x2 Bytes, Flags = 0x02000000)
T4C0C 002:403.495   CPU_ReadMem(2 bytes @ 0x575C677E)
T4C0C 002:403.770   failed
T4C0C 002:403.779 - 0.295ms returns -1 (0xFFFFFFFF)
T4C0C 002:403.786 JLINK_ReadMemEx(0x575C677E, 0x2 Bytes, Flags = 0x02000000)
T4C0C 002:403.794   CPU_ReadMem(2 bytes @ 0x575C677E)
T4C0C 002:404.053   failed
T4C0C 002:404.063 - 0.279ms returns -1 (0xFFFFFFFF)
T4C0C 002:404.070 JLINK_ReadMemEx(0x575C677E, 0x1 Bytes, Flags = 0x02000000)
T4C0C 002:404.078   CPU_ReadMem(1 bytes @ 0x575C677E)
T4C0C 002:404.341   failed
T4C0C 002:404.350 - 0.282ms returns -1 (0xFFFFFFFF)
T4C0C 002:404.358 JLINK_ReadMemEx(0x575C6780, 0x3C Bytes, Flags = 0x02000000)
T4C0C 002:404.365   CPU_ReadMem(60 bytes @ 0x575C6780)
T4C0C 002:404.692   failed
T4C0C 002:404.701 - 0.346ms returns -1 (0xFFFFFFFF)
T4C0C 002:404.708 JLINK_ReadMemEx(0x575C6780, 0x3C Bytes, Flags = 0x02000000)
T4C0C 002:404.716   CPU_ReadMem(60 bytes @ 0x575C6780)
T4C0C 002:405.045   failed
T4C0C 002:405.055 - 0.349ms returns -1 (0xFFFFFFFF)
T4C0C 002:405.062 JLINK_ReadMemEx(0x575C6780, 0x10 Bytes, Flags = 0x02000000)
T4C0C 002:405.070   CPU_ReadMem(16 bytes @ 0x575C6780)
T4C0C 002:405.345   failed
T4C0C 002:405.355 - 0.295ms returns -1 (0xFFFFFFFF)
T4C0C 002:405.362 JLINK_ReadMemEx(0x575C6780, 0x4 Bytes, Flags = 0x02000000)
T4C0C 002:405.369   CPU_ReadMem(4 bytes @ 0x575C6780)
T4C0C 002:405.668   failed
T4C0C 002:405.678 - 0.318ms returns -1 (0xFFFFFFFF)
T4C0C 002:405.685 JLINK_ReadMemEx(0x575C6780, 0x2 Bytes, Flags = 0x02000000)
T4C0C 002:405.692   CPU_ReadMem(2 bytes @ 0x575C6780)
T4C0C 002:405.949   failed
T4C0C 002:405.958 - 0.276ms returns -1 (0xFFFFFFFF)
T4C0C 002:405.965 JLINK_ReadMemEx(0x575C6780, 0x1 Bytes, Flags = 0x02000000)
T4C0C 002:405.973   CPU_ReadMem(1 bytes @ 0x575C6780)
T4C0C 002:406.228   failed
T4C0C 002:406.238 - 0.275ms returns -1 (0xFFFFFFFF)
T4C0C 002:406.245 JLINK_ReadMemEx(0x575C6780, 0x2 Bytes, Flags = 0x02000000)
T4C0C 002:406.252   CPU_ReadMem(2 bytes @ 0x575C6780)
T4C0C 002:406.519   failed
T4C0C 002:406.529 - 0.286ms returns -1 (0xFFFFFFFF)
T4C0C 002:406.536 JLINK_ReadMemEx(0x575C6780, 0x2 Bytes, Flags = 0x02000000)
T4C0C 002:406.544   CPU_ReadMem(2 bytes @ 0x575C6780)
T4C0C 002:406.797   failed
T4C0C 002:406.807 - 0.273ms returns -1 (0xFFFFFFFF)
T4C0C 002:406.814 JLINK_ReadMemEx(0x575C6780, 0x2 Bytes, Flags = 0x02000000)
T4C0C 002:406.826   CPU_ReadMem(2 bytes @ 0x575C6780)
T4C0C 002:407.105   failed
T4C0C 002:407.115 - 0.303ms returns -1 (0xFFFFFFFF)
T4C0C 002:407.122 JLINK_ReadMemEx(0x575C6780, 0x2 Bytes, Flags = 0x02000000)
T4C0C 002:407.129   CPU_ReadMem(2 bytes @ 0x575C6780)
T4C0C 002:407.396   failed
T4C0C 002:407.405 - 0.286ms returns -1 (0xFFFFFFFF)
T4C0C 002:407.412 JLINK_ReadMemEx(0x575C6780, 0x2 Bytes, Flags = 0x02000000)
T4C0C 002:407.420   CPU_ReadMem(2 bytes @ 0x575C6780)
T4C0C 002:407.684   failed
T4C0C 002:407.693 - 0.283ms returns -1 (0xFFFFFFFF)
T4C0C 002:407.700 JLINK_ReadMemEx(0x575C6780, 0x1 Bytes, Flags = 0x02000000)
T4C0C 002:407.708   CPU_ReadMem(1 bytes @ 0x575C6780)
T4C0C 002:407.965   failed
T4C0C 002:407.974 - 0.276ms returns -1 (0xFFFFFFFF)
T4C0C 002:407.986 JLINK_ReadMemEx(0x575C6780, 0x3C Bytes, Flags = 0x02000000)
T4C0C 002:407.994   CPU_ReadMem(60 bytes @ 0x575C6780)
T4C0C 002:408.318   failed
T4C0C 002:408.328 - 0.344ms returns -1 (0xFFFFFFFF)
T4C0C 002:408.335 JLINK_ReadMemEx(0x575C6780, 0x3C Bytes, Flags = 0x02000000)
T4C0C 002:408.343   CPU_ReadMem(60 bytes @ 0x575C6780)
T4C0C 002:408.669   failed
T4C0C 002:408.678 - 0.345ms returns -1 (0xFFFFFFFF)
T4C0C 002:408.685 JLINK_ReadMemEx(0x575C6780, 0x10 Bytes, Flags = 0x02000000)
T4C0C 002:408.692   CPU_ReadMem(16 bytes @ 0x575C6780)
T4C0C 002:408.978   failed
T4C0C 002:408.987 - 0.305ms returns -1 (0xFFFFFFFF)
T4C0C 002:408.994 JLINK_ReadMemEx(0x575C6780, 0x4 Bytes, Flags = 0x02000000)
T4C0C 002:409.002   CPU_ReadMem(4 bytes @ 0x575C6780)
T4C0C 002:409.293   failed
T4C0C 002:409.303 - 0.311ms returns -1 (0xFFFFFFFF)
T4C0C 002:409.310 JLINK_ReadMemEx(0x575C6780, 0x2 Bytes, Flags = 0x02000000)
T4C0C 002:409.318   CPU_ReadMem(2 bytes @ 0x575C6780)
